
**** 03/01/23 09:01:26 ********* PSpice 9.2 (Mar 2000) ******** ID# 0 ********

 * C:\Users\Lenovo\3D Objects\DIODE_FINAL_PROJECT\Diode\4.sch


 ****     CIRCUIT DESCRIPTION


******************************************************************************




* Schematics Version 9.2
* Wed Mar 01 04:13:11 2023



** Analysis setup **
.OP 


* From [PSPICE NETLIST] section of C:\Program Files\Orcad\PSpice\PSpice.ini:
.lib "nom.lib"

.INC "4.net"



**** INCLUDING 4.net ****
* Schematics Netlist *



V_V1         1 0 6
R_R3         0 3  10k  
D_D2         3 2 D1N4002 
R_R2         4 2  20k  
D_D1         1 2 D1N4002 
D_D3         4 0 D1N4002 

**** RESUMING 4.cir ****
.PROBE V(*) I(*) W(*) D(*) NOISE(*) 


.END

**** 03/01/23 09:01:26 ********* PSpice 9.2 (Mar 2000) ******** ID# 0 ********

 * C:\Users\Lenovo\3D Objects\DIODE_FINAL_PROJECT\Diode\4.sch


 ****     Diode MODEL PARAMETERS


******************************************************************************




               D1N4002         
          IS   14.110000E-09 
           N    1.984        
         ISR  100.000000E-12 
         IKF   94.81         
          BV  100.1          
         IBV   10            
          RS     .03389      
          TT    4.761000E-06 
         CJO   51.170000E-12 
          VJ     .3905       
           M     .2762       


**** 03/01/23 09:01:26 ********* PSpice 9.2 (Mar 2000) ******** ID# 0 ********

 * C:\Users\Lenovo\3D Objects\DIODE_FINAL_PROJECT\Diode\4.sch


 ****     SMALL SIGNAL BIAS SOLUTION       TEMPERATURE =   27.000 DEG C


******************************************************************************



 NODE   VOLTAGE     NODE   VOLTAGE     NODE   VOLTAGE     NODE   VOLTAGE


(    1)    6.0000  (    2)    5.4983  (    3) 143.2E-06  (    4)     .5017  




    VOLTAGE SOURCE CURRENTS
    NAME         CURRENT

    V_V1        -2.498E-04

    TOTAL POWER DISSIPATION   1.50E-03  WATTS


**** 03/01/23 09:01:26 ********* PSpice 9.2 (Mar 2000) ******** ID# 0 ********

 * C:\Users\Lenovo\3D Objects\DIODE_FINAL_PROJECT\Diode\4.sch


 ****     OPERATING POINT INFORMATION      TEMPERATURE =   27.000 DEG C


******************************************************************************






**** DIODES


NAME         D_D2        D_D1        D_D3      
MODEL        D1N4002     D1N4002     D1N4002   
ID          -1.43E-08    2.50E-04    2.50E-04 
VD          -5.50E+00    5.02E-01    5.02E-01 
REQ          2.58E+11    2.05E+02    2.05E+02 
CAP          2.42E-11    2.33E-08    2.33E-08 

          JOB CONCLUDED

          TOTAL JOB TIME             .05
