
**** 03/01/23 15:14:42 ********* PSpice 9.2 (Mar 2000) ******** ID# 0 ********

 * C:\Users\Lenovo\3D Objects\DIODE_FINAL_PROJECT\Diode\4AC.sch


 ****     CIRCUIT DESCRIPTION


******************************************************************************




* Schematics Version 9.2
* Wed Mar 01 09:48:52 2023



** Analysis setup **
.tran 1u 1 0 1u
.OP 


* From [PSPICE NETLIST] section of C:\Program Files\Orcad\PSpice\PSpice.ini:
.lib "nom.lib"

.INC "4AC.net"



**** INCLUDING 4AC.net ****
* Schematics Netlist *



R_R3         0 3  10k  
D_D2         3 2 D1N4002 
R_R2         4 2  20k  
D_D1         1 2 D1N4002 
D_D3         4 0 D1N4002 
V_V1         1 0  
+SIN 0 6 5 0 0 0

**** RESUMING 4AC.cir ****
.PROBE V(*) I(*) W(*) D(*) NOISE(*) 


.END

**** 03/01/23 15:14:42 ********* PSpice 9.2 (Mar 2000) ******** ID# 0 ********

 * C:\Users\Lenovo\3D Objects\DIODE_FINAL_PROJECT\Diode\4AC.sch


 ****     Diode MODEL PARAMETERS


******************************************************************************




               D1N4002         
          IS   14.110000E-09 
           N    1.984        
         ISR  100.000000E-12 
         IKF   94.81         
          BV  100.1          
         IBV   10            
          RS     .03389      
          TT    4.761000E-06 
         CJO   51.170000E-12 
          VJ     .3905       
           M     .2762       


**** 03/01/23 15:14:42 ********* PSpice 9.2 (Mar 2000) ******** ID# 0 ********

 * C:\Users\Lenovo\3D Objects\DIODE_FINAL_PROJECT\Diode\4AC.sch


 ****     SMALL SIGNAL BIAS SOLUTION       TEMPERATURE =   27.000 DEG C


******************************************************************************



 NODE   VOLTAGE     NODE   VOLTAGE     NODE   VOLTAGE     NODE   VOLTAGE


(    1)    0.0000  (    2)-1.218E-12  (    3) 6.286E-15  (    4)-1.193E-12  




    VOLTAGE SOURCE CURRENTS
    NAME         CURRENT

    V_V1         6.205E-19

    TOTAL POWER DISSIPATION   0.00E+00  WATTS


**** 03/01/23 15:14:42 ********* PSpice 9.2 (Mar 2000) ******** ID# 0 ********

 * C:\Users\Lenovo\3D Objects\DIODE_FINAL_PROJECT\Diode\4AC.sch


 ****     OPERATING POINT INFORMATION      TEMPERATURE =   27.000 DEG C


******************************************************************************






**** DIODES


NAME         D_D2        D_D1        D_D3      
MODEL        D1N4002     D1N4002     D1N4002   
ID           3.39E-19    3.37E-19   -3.30E-19 
VD           1.22E-12    1.22E-12   -1.19E-12 
REQ          3.61E+06    3.61E+06    3.61E+06 
CAP          5.25E-11    5.25E-11    5.25E-11 
**** 03/01/23 15:14:42 ********* PSpice 9.2 (Mar 2000) ******** ID# 0 ********

 * C:\Users\Lenovo\3D Objects\DIODE_FINAL_PROJECT\Diode\4AC.sch


 ****     INITIAL TRANSIENT SOLUTION       TEMPERATURE =   27.000 DEG C


******************************************************************************



 NODE   VOLTAGE     NODE   VOLTAGE     NODE   VOLTAGE     NODE   VOLTAGE


(    1)    0.0000  (    2)-1.218E-12  (    3) 6.286E-15  (    4)-1.193E-12  




    VOLTAGE SOURCE CURRENTS
    NAME         CURRENT

    V_V1         6.205E-19

    TOTAL POWER DISSIPATION   0.00E+00  WATTS



          JOB CONCLUDED

          TOTAL JOB TIME           41.64
