
**** 03/01/23 13:43:48 ********* PSpice 9.2 (Mar 2000) ******** ID# 0 ********

 * C:\Users\Lenovo\3D Objects\DIODE_FINAL_PROJECT\Diode\Schematic2.sch


 ****     CIRCUIT DESCRIPTION


******************************************************************************




* Schematics Version 9.2
* Wed Mar 01 13:43:45 2023



** Analysis setup **
.OP 


* From [PSPICE NETLIST] section of C:\Program Files\Orcad\PSpice\PSpice.ini:
.lib "nom.lib"

.INC "Schematic2.net"



**** INCLUDING Schematic2.net ****
* Schematics Netlist *



R_R2         0 2  20k  
V_V1         1 0 6
D_D1         1 2 D1N4002 
D_D2         2 3 D1N4002 
R_R3         0 3  10k  

**** RESUMING Schematic2.cir ****
.PROBE V(*) I(*) W(*) D(*) NOISE(*) 


.END

**** 03/01/23 13:43:48 ********* PSpice 9.2 (Mar 2000) ******** ID# 0 ********

 * C:\Users\Lenovo\3D Objects\DIODE_FINAL_PROJECT\Diode\Schematic2.sch


 ****     Diode MODEL PARAMETERS


******************************************************************************




               D1N4002         
          IS   14.110000E-09 
           N    1.984        
         ISR  100.000000E-12 
         IKF   94.81         
          BV  100.1          
         IBV   10            
          RS     .03389      
          TT    4.761000E-06 
         CJO   51.170000E-12 
          VJ     .3905       
           M     .2762       


**** 03/01/23 13:43:48 ********* PSpice 9.2 (Mar 2000) ******** ID# 0 ********

 * C:\Users\Lenovo\3D Objects\DIODE_FINAL_PROJECT\Diode\Schematic2.sch


 ****     SMALL SIGNAL BIAS SOLUTION       TEMPERATURE =   27.000 DEG C


******************************************************************************



 NODE   VOLTAGE     NODE   VOLTAGE     NODE   VOLTAGE     NODE   VOLTAGE


(    1)    6.0000  (    2)    5.4410  (    3)    4.9047  




    VOLTAGE SOURCE CURRENTS
    NAME         CURRENT

    V_V1        -7.625E-04

    TOTAL POWER DISSIPATION   4.58E-03  WATTS


**** 03/01/23 13:43:48 ********* PSpice 9.2 (Mar 2000) ******** ID# 0 ********

 * C:\Users\Lenovo\3D Objects\DIODE_FINAL_PROJECT\Diode\Schematic2.sch


 ****     OPERATING POINT INFORMATION      TEMPERATURE =   27.000 DEG C


******************************************************************************






**** DIODES


NAME         D_D1        D_D2      
MODEL        D1N4002     D1N4002   
ID           7.63E-04    4.90E-04 
VD           5.59E-01    5.36E-01 
REQ          6.73E+01    1.05E+02 
CAP          7.09E-08    4.56E-08 

          JOB CONCLUDED

          TOTAL JOB TIME             .02
